! Touchstone(R) file created by SIwave 2020 R2
! Touchstone(R) file created on Tue Apr 20 08:41:09 2021

! Port[1] = CS_PHASE_A_3_1x3_PIN_PHASE_A
! Port[2] = CS_PHASE_A_3_ACS770LCB-050B-PFF-T_U1
! Port[3] = CS_PHASE_B_3_1x3_PIN_PHASE_B
! Port[4] = CS_PHASE_B_3_ACS770LCB-050B-PFF-T_U3
! Port[5] = CS_PHASE_C_3_1x3_PIN_PHASE_C
! Port[6] = CS_PHASE_C_3_ACS770LCB-050B-PFF-T_U4


! S-parameters
# Hz S MA R 50.000000
0.000000000000e+00 3.123990147784e-04 0.000000000000e+00 9.996876009353e-01 0.000000000000e+00 5.773181590046e-05 0.000000000000e+00 5.773181293459e-05 1.800000000000e+02
                   4.832655669611e-07 1.800000000000e+02 4.832658296276e-07 0.000000000000e+00
                   9.996876009353e-01 0.000000000000e+00 3.123990146179e-04 0.000000000000e+00 5.773181305424e-05 1.800000000000e+02 5.773181579073e-05 0.000000000000e+00
                   4.832658084348e-07 0.000000000000e+00 4.832655832973e-07 1.800000000000e+02
                   5.773181590046e-05 0.000000000000e+00 5.773181305424e-05 1.800000000000e+02 4.117725949108e-04 0.000000000000e+00 9.995882235847e-01 0.000000000000e+00
                   1.157954178695e-04 0.000000000000e+00 1.157957408636e-04 1.800000000000e+02
                   5.773181293459e-05 1.800000000000e+02 5.773181579073e-05 0.000000000000e+00 9.995882235847e-01 0.000000000000e+00 4.117725943790e-04 0.000000000000e+00
                   1.157957401539e-04 1.800000000000e+02 1.157954172508e-04 0.000000000000e+00
                   4.832655669611e-07 1.800000000000e+02 4.832658084348e-07 0.000000000000e+00 1.157954178695e-04 0.000000000000e+00 1.157957401539e-04 1.800000000000e+02
                   2.314562120253e-04 0.000000000000e+00 9.997685437104e-01 0.000000000000e+00
                   4.832658296276e-07 0.000000000000e+00 4.832655832973e-07 1.800000000000e+02 1.157957408636e-04 1.800000000000e+02 1.157954172508e-04 0.000000000000e+00
                   9.997685437104e-01 0.000000000000e+00 2.314562118890e-04 0.000000000000e+00
1.000000000000e+00 3.317077234326e-04 4.872736033453e-02 9.996682857750e-01 -1.708847678842e-05 5.777606165612e-05 -4.245404060374e-02 5.776765152711e-05 1.799615295903e+02
                   4.728369414969e-07 -1.764501598752e+02 4.698862455634e-07 3.758801299764e+00
                   9.996682857750e-01 -1.708847678842e-05 3.317077234109e-04 4.872796894173e-02 5.776765147738e-05 1.799615294832e+02 5.777605230760e-05 -4.245711087527e-02
                   4.698864807012e-07 3.758799945755e+00 4.728385401880e-07 -1.764503810236e+02
                   5.777606165612e-05 -4.245404060374e-02 5.776765147738e-05 1.799615294832e+02 4.117722006628e-04 9.586217104851e-04 9.995882171342e-01 -8.083035411889e-07
                   1.157791241476e-04 1.237485200671e-02 1.157752464967e-04 -1.799851621725e+02
                   5.776765152711e-05 1.799615295903e+02 5.777605230760e-05 -4.245711087527e-02 9.995882171342e-01 -8.083035411889e-07 4.117722003711e-04 9.585179606407e-04
                   1.157752485972e-04 -1.799851626896e+02 1.157791231817e-04 1.237513789558e-02
                   4.728369414969e-07 -1.764501598752e+02 4.698864807012e-07 3.758799945755e+00 1.157791241476e-04 1.237485200671e-02 1.157752485972e-04 -1.799851626896e+02
                   2.321830595508e-04 4.415314102314e-02 9.997678155987e-01 -1.067068201700e-05
                   4.698862455634e-07 3.758801299764e+00 4.728385401880e-07 -1.764503810236e+02 1.157752464967e-04 -1.799851621725e+02 1.157791231817e-04 1.237513789558e-02
                   9.997678155987e-01 -1.067068201700e-05 2.321830594744e-04 4.415315642765e-02
1.148153621497e+00 3.317085849550e-04 4.259982408420e-02 9.996682845934e-01 -1.495288158345e-05 5.778108406288e-05 -4.206918058139e-02 5.777219988521e-05 1.799603966101e+02
                   4.700162489989e-07 -1.760843119279e+02 4.665445372748e-07 4.134457055018e+00
                   9.996682845934e-01 -1.495288158345e-05 3.317085849544e-04 4.260035237659e-02 5.777219980055e-05 1.799603964578e+02 5.778107557087e-05 -4.207322495354e-02
                   4.665448186925e-07 4.134461027044e+00 4.700181990812e-07 -1.760845353453e+02
                   5.778108406288e-05 -4.206918058139e-02 5.777219980055e-05 1.799603964578e+02 4.117727085765e-04 1.073987299854e-03 9.995882158876e-01 -9.093126933529e-07
                   1.157762279176e-04 1.313205801990e-02 1.157716170191e-04 -1.799846212018e+02
                   5.777219988521e-05 1.799603966101e+02 5.778107557087e-05 -4.207322495354e-02 9.995882158876e-01 -9.093126933529e-07 4.117727083595e-04 1.073869880224e-03
                   1.157716192715e-04 -1.799846215716e+02 1.157762268630e-04 1.313236310434e-02
                   4.700162489989e-07 -1.760843119279e+02 4.665448186925e-07 4.134461027044e+00 1.157762279176e-04 1.313205801990e-02 1.157716192715e-04 -1.799846215716e+02
                   2.321933165584e-04 3.902594539122e-02 9.997678048723e-01 -9.455628210646e-06
                   4.665445372748e-07 4.134457055018e+00 4.700181990812e-07 -1.760845353453e+02 1.157716170191e-04 -1.799846212018e+02 1.157762268630e-04 1.313236310434e-02
                   9.997678048723e-01 -9.455628210646e-06 2.321933164910e-04 3.902595811253e-02
1.258925411794e+00 3.317090713462e-04 3.897321307794e-02 9.996682839997e-01 -1.369000875882e-05 5.778438730776e-05 -4.159297506537e-02 5.777527568919e-05 1.799597781954e+02
                   4.677944736633e-07 -1.758425421296e+02 4.640108643293e-07 4.379483748265e+00
                   9.996682839997e-01 -1.369000875882e-05 3.317090713576e-04 3.897369350514e-02 5.777527557983e-05 1.799597780048e+02 5.778437947250e-05 -4.159751776961e-02
                   4.640111753503e-07 4.379492439498e+00 4.677966756095e-07 -1.758427618725e+02
                   5.778438730776e-05 -4.159297506537e-02 5.777527557983e-05 1.799597780048e+02 4.117731966933e-04 1.154169048170e-03 9.995882149629e-01 -9.805474207705e-07
                   1.157741839732e-04 1.358740834574e-02 1.157691019197e-04 -1.799843695406e+02
                   5.777527568919e-05 1.799597781954e+02 5.778437947250e-05 -4.159751776961e-02 9.995882149629e-01 -9.805474207705e-07 4.117731965388e-04 1.154041850660e-03
                   1.157691042247e-04 -1.799843698066e+02 1.157741828491e-04 1.358772301621e-02
                   4.677944736633e-07 -1.758425421296e+02 4.640111753503e-07 4.379492439498e+00 1.157741839732e-04 1.358740834574e-02 1.157691042247e-04 -1.799843698066e+02
                   2.321988259413e-04 3.588185897234e-02 9.997677990378e-01 -8.709633930095e-06
                   4.640108643293e-07 4.379483748265e+00 4.677966756095e-07 -1.758427618725e+02 1.157691019197e-04 -1.799843695406e+02 1.157741828491e-04 1.358772301621e-02
                   9.997677990378e-01 -8.709633930095e-06 2.321988258774e-04 3.588186989583e-02
1.380384264603e+00 3.317095095780e-04 3.567710262164e-02 9.996682835396e-01 -1.254321193438e-05 5.778764671806e-05 -4.096564940403e-02 5.777838253201e-05 1.799592752800e+02
                   4.652875919053e-07 -1.756079399711e+02 4.612326789198e-07 4.614066233897e+00
                   9.996682835396e-01 -1.254321193438e-05 3.317095095986e-04 3.567753925065e-02 5.777838239868e-05 1.799592750436e+02 5.778763957266e-05 -4.097056769860e-02
                   4.612330187299e-07 4.614080652762e+00 4.652900537341e-07 -1.756081509006e+02
                   5.778764671806e-05 -4.096564940403e-02 5.777838239868e-05 1.799592750436e+02 4.117738203092e-04 1.235933456036e-03 9.995882139527e-01 -1.054303284938e-06
                   1.157720670462e-04 1.399923361519e-02 1.157665417164e-04 -1.799842068812e+02
                   5.777838253201e-05 1.799592752800e+02 5.778763957266e-05 -4.097056769860e-02 9.995882139527e-01 -1.054303284938e-06 4.117738202282e-04 1.235796015773e-03
                   1.157665440369e-04 -1.799842070438e+02 1.157720658468e-04 1.399955421163e-02
                   4.652875919053e-07 -1.756079399711e+02 4.612330187299e-07 4.614080652762e+00 1.157720670462e-04 1.399923361519e-02 1.157665440369e-04 -1.799842070438e+02
                   2.322034507134e-04 3.295569154340e-02 9.997677940904e-01 -8.015146477006e-06
                   4.612326789198e-07 4.614066233897e+00 4.652900537341e-07 -1.756081509006e+02 1.157665417164e-04 -1.799842068812e+02 1.157720658468e-04 1.399955421163e-02
                   9.997677940904e-01 -8.015146477006e-06 2.322034506533e-04 3.295570067314e-02
1.513561248436e+00 3.317099139828e-04 3.268359395139e-02 9.996682831967e-01 -1.150278908356e-05 5.779086012522e-05 -4.020461537925e-02 5.778151929687e-05 1.799588981631e+02
                   4.624954146358e-07 -1.753859151193e+02 4.582187356474e-07 4.832356455803e+00
                   9.996682831967e-01 -1.150278908356e-05 3.317099140117e-04 3.268399047979e-02 5.778151914019e-05 1.799588978725e+02 5.779085367557e-05 -4.020979317735e-02
                   4.582191004417e-07 4.832377661318e+00 4.624981353644e-07 -1.753861113190e+02
                   5.779086012522e-05 -4.020461537925e-02 5.778151914019e-05 1.799588978725e+02 4.117745911649e-04 1.318100464832e-03 9.995882128467e-01 -1.129869529773e-06
                   1.157698915871e-04 1.436533360369e-02 1.157639615281e-04 -1.799841311564e+02
                   5.778151929687e-05 1.799588981631e+02 5.779085367557e-05 -4.020979317735e-02 9.995882128467e-01 -1.129869529773e-06 4.117745911720e-04 1.317952416388e-03
                   1.157639638273e-04 -1.799841312204e+02 1.157698903057e-04 1.436565542712e-02
                   4.624954146358e-07 -1.753859151193e+02 4.582191004417e-07 4.832377661318e+00 1.157698915871e-04 1.436533360369e-02 1.157639638273e-04 -1.799841312204e+02
                   2.322073256506e-04 3.024225109026e-02 9.997677899071e-01 -7.371330090373e-06
                   4.582187356474e-07 4.832356455803e+00 4.624981353644e-07 -1.753861113190e+02 1.157639615281e-04 -1.799841311564e+02 1.157698903057e-04 1.436565542712e-02
                   9.997677899071e-01 -7.371330090373e-06 2.322073255931e-04 3.024225843492e-02
1.659586907438e+00 3.317102954013e-04 2.996733746983e-02 9.996682829566e-01 -1.055993317810e-05 5.779402692119e-05 -3.932257496288e-02 5.778468441887e-05 1.799586619009e+02
                   4.594286473858e-07 -1.751823320724e+02 4.549869433189e-07 5.028238630893e+00
                   9.996682829566e-01 -1.055993317810e-05 3.317102954364e-04 2.996769725688e-02 5.778468424267e-05 1.799586615476e+02 5.779402115167e-05 -3.932790806507e-02
                   4.549873285900e-07 5.028267662706e+00 4.594316147698e-07 -1.751825070296e+02
                   5.779402692119e-05 -3.932257496288e-02 5.778468424267e-05 1.799586615476e+02 4.117755185160e-04 1.399219275400e-03 9.995882116344e-01 -1.206347416204e-06
                   1.157676705439e-04 1.468412932157e-02 1.157613833876e-04 -1.799841376911e+02
                   5.778468441887e-05 1.799586619009e+02 5.779402115167e-05 -3.932790806507e-02 9.995882116344e-01 -1.206347416204e-06 4.117755186274e-04 1.399060403599e-03
                   1.157613856343e-04 -1.799841376645e+02 1.157676691761e-04 1.468444660157e-02
                   4.594286473858e-07 -1.751823320724e+02 4.549873285900e-07 5.028267662706e+00 1.157676705439e-04 1.468412932157e-02 1.157613856343e-04 -1.799841376645e+02
                   2.322105696592e-04 2.773386061241e-02 9.997677863807e-01 -6.776683048134e-06
                   4.549869433189e-07 5.028238630893e+00 4.594316147698e-07 -1.751825070296e+02 1.157613833876e-04 -1.799841376911e+02 1.157676691761e-04 1.468444660157e-02
                   9.997677863807e-01 -6.776683048134e-06 2.322105696044e-04 2.773386618084e-02
1.819700858610e+00 3.317106617064e-04 2.750532223557e-02 9.996682828059e-01 -9.706659356520e-06 5.779714568710e-05 -3.832724296404e-02 5.778787367656e-05 1.799585854143e+02
                   4.561099394683e-07 -1.750032417892e+02 4.515651854677e-07 5.195665613111e+00
                   9.996682828059e-01 -9.706659356520e-06 3.317106617476e-04 2.750564833002e-02 5.778787348395e-05 1.799585849895e+02 5.779714056325e-05 -3.833264226383e-02
                   4.515655849662e-07 5.195703449365e+00 4.561131297193e-07 -1.750033887107e+02
                   5.779714568710e-05 -3.832724296404e-02 5.778787348395e-05 1.799585849895e+02 4.117766083122e-04 1.477583610064e-03 9.995882103056e-01 -1.282657146276e-06
                   1.157654149897e-04 1.495415903000e-02 1.157588254363e-04 -1.799842200304e+02
                   5.778787367656e-05 1.799585854143e+02 5.779714056325e-05 -3.833264226383e-02 9.995882103056e-01 -1.282657146276e-06 4.117766085466e-04 1.477413916191e-03
                   1.157588276050e-04 -1.799842199240e+02 1.157654135332e-04 1.495446497882e-02
                   4.561099394683e-07 -1.750032417892e+02 4.515655849662e-07 5.195703449365e+00 1.157654149897e-04 1.495415903000e-02 1.157588276050e-04 -1.799842199240e+02
                   2.322132864592e-04 2.542117098495e-02 9.997677834184e-01 -6.229245950163e-06
                   4.515651854677e-07 5.195665613111e+00 4.561131297193e-07 -1.750033887107e+02 1.157588254363e-04 -1.799842200304e+02 1.157654135332e-04 1.495446497882e-02
                   9.997677834184e-01 -6.229245950163e-06 2.322132864069e-04 2.542117478312e-02
1.995262314969e+00 3.317110182298e-04 2.527668419419e-02 9.996682827324e-01 -8.935738609480e-06 5.780021212964e-05 -3.722198480593e-02 5.779107834837e-05 1.799586896978e+02
                   4.525740470662e-07 -1.748545344609e+02 4.479913346374e-07 5.329055021776e+00
                   9.996682827324e-01 -8.935738609480e-06 3.317110182759e-04 2.527697936010e-02 5.779107814568e-05 1.799586891931e+02 5.780020760722e-05 -3.722737768460e-02
                   4.479917415504e-07 5.329102515382e+00 4.525774228213e-07 -1.748546466775e+02
                   5.780021212964e-05 -3.722198480593e-02 5.779107814568e-05 1.799586891931e+02 4.117778623710e-04 1.551278425152e-03 9.995882088517e-01 -1.357565183170e-06
                   1.157631343060e-04 1.517360832108e-02 1.157563018449e-04 -1.799843708521e+02
                   5.779107834837e-05 1.799586896978e+02 5.780020760722e-05 -3.722737768460e-02 9.995882088517e-01 -1.357565183170e-06 4.117778627501e-04 1.551098212038e-03
                   1.157563039148e-04 -1.799843706784e+02 1.157631327602e-04 1.517389530310e-02
                   4.525740470662e-07 -1.748545344609e+02 4.479917415504e-07 5.329102515382e+00 1.157631343060e-04 1.517360832108e-02 1.157563039148e-04 -1.799843706784e+02
                   2.322155655323e-04 2.329380175814e-02 9.997677809403e-01 -5.726767614126e-06
                   4.479913346374e-07 5.329055021776e+00 4.525774228213e-07 -1.748546466775e+02 1.157563018449e-04 -1.799843708521e+02 1.157631327602e-04 1.517389530310e-02
                   9.997677809403e-01 -5.726767614126e-06 2.322155654817e-04 2.329380378654e-02
2.187761623950e+00 3.317113681074e-04 2.326253178996e-02 9.996682827246e-01 -8.240637530567e-06 5.780321767782e-05 -3.600717371205e-02 5.779428407776e-05 1.799589953578e+02
                   4.488669324790e-07 -1.747415393716e+02 4.443122562124e-07 5.423706383668e+00
                   9.996682827246e-01 -8.240637530567e-06 3.317113681572e-04 2.326279852980e-02 5.779428387162e-05 1.799589947656e+02 5.780321370439e-05 -3.601250401395e-02
                   4.443126621717e-07 5.423764233411e+00 4.488704430183e-07 -1.747416108426e+02
                   5.780321767782e-05 -3.600717371205e-02 5.779428387162e-05 1.799589947656e+02 4.117792776741e-04 1.618265232077e-03 9.995882072666e-01 -1.429736606479e-06
                   1.157608368550e-04 1.533999743619e-02 1.157538234242e-04 -1.799845827962e+02
                   5.779428407776e-05 1.799589953578e+02 5.780321370439e-05 -3.601250401395e-02 9.995882072666e-01 -1.429736606479e-06 4.117792782237e-04 1.618075211820e-03
                   1.157538253836e-04 -1.799845825680e+02 1.157608352241e-04 1.534025727443e-02
                   4.488669324790e-07 -1.747415393716e+02 4.443126621717e-07 5.423764233411e+00 1.157608368550e-04 1.533999743619e-02 1.157538253836e-04 -1.799845825680e+02
                   2.322174832388e-04 2.134083535481e-02 9.997677788779e-01 -5.266834359553e-06
                   4.443122562124e-07 5.423706383668e+00 4.488704430183e-07 -1.747416108426e+02 1.157538234242e-04 -1.799845827962e+02 1.157608352241e-04 1.534025727443e-02
                   9.997677788779e-01 -5.266834359553e-06 2.322174831892e-04 2.134083560621e-02
2.290867652768e+00 3.317115410065e-04 2.233048418135e-02 9.996682827418e-01 -7.919654332551e-06 5.780469360818e-05 -3.535841900630e-02 5.779588123596e-05 1.799592293541e+02
                   4.469661270650e-07 -1.746998442194e+02 4.424498803893e-07 5.455374353443e+00
                   9.996682827418e-01 -7.919654332551e-06 3.317115410590e-04 2.233073757055e-02 5.779588103093e-05 1.799592287156e+02 5.780468988871e-05 -3.536370184511e-02
                   4.424502820185e-07 5.455437591380e+00 4.469696820426e-07 -1.746998933955e+02
                   5.780469360818e-05 -3.535841900630e-02 5.779588103093e-05 1.799592287156e+02 4.117800434103e-04 1.648602892177e-03 9.995882064237e-01 -1.464370245915e-06
                   1.157596844161e-04 1.540231673319e-02 1.157526038870e-04 -1.799847095349e+02
                   5.779588123596e-05 1.799592293541e+02 5.780468988871e-05 -3.536370184511e-02 9.995882064237e-01 -1.464370245915e-06 4.117800440551e-04 1.648408399166e-03
                   1.157526057878e-04 -1.799847092843e+02 1.157596827455e-04 1.540255988356e-02
                   4.469661270650e-07 -1.746998442194e+02 4.424502820185e-07 5.455437591380e+00 1.157596844161e-04 1.540231673319e-02 1.157526057878e-04 -1.799847092843e+02
                   2.322183271470e-04 2.042628845181e-02 9.997677779836e-01 -5.052048242651e-06
                   4.424498803893e-07 5.455374353443e+00 4.469696820426e-07 -1.746998933955e+02 1.157526038870e-04 -1.799847095349e+02 1.157596827455e-04 1.540255988356e-02
                   9.997677779836e-01 -5.052048242651e-06 2.322183270984e-04 2.042628780905e-02
2.398832919019e+00 3.317117125807e-04 2.144578767738e-02 9.996682827715e-01 -7.615463705233e-06 5.780614891621e-05 -3.468196967320e-02 5.779747065572e-05 1.799595198388e+02
                   4.450437781960e-07 -1.746686140047e+02 4.405817707697e-07 5.476188496406e+00
                   9.996682827715e-01 -7.615463705233e-06 3.317117126345e-04 2.144602825295e-02 5.779747045337e-05 1.799595191525e+02 5.780614543632e-05 -3.468719668295e-02
                   4.405821665716e-07 5.476257215984e+00 4.450473607980e-07 -1.746686398571e+02
                   5.780614891621e-05 -3.468196967320e-02 5.779747045337e-05 1.799595191525e+02 4.117808459281e-04 1.676509666952e-03 9.995882055474e-01 -1.497814701226e-06
                   1.157585309623e-04 1.545012132372e-02 1.157513987658e-04 -1.799848490750e+02
                   5.779747065572e-05 1.799595198388e+02 5.780614543632e-05 -3.468719668295e-02 9.995882055474e-01 -1.497814701226e-06 4.117808466766e-04 1.676311095044e-03
                   1.157514006082e-04 -1.799848488051e+02 1.157585292541e-04 1.545034575063e-02
                   4.450437781960e-07 -1.746686140047e+02 4.405821665716e-07 5.476257215984e+00 1.157585309623e-04 1.545012132372e-02 1.157514006082e-04 -1.799848488051e+02
                   2.322191040097e-04 1.955118987816e-02 9.997677771718e-01 -4.846968659193e-06
                   4.405817707697e-07 5.476188496406e+00 4.450473607980e-07 -1.746686398571e+02 1.157513987658e-04 -1.799848490750e+02 1.157585292541e-04 1.545034575063e-02
                   9.997677771718e-01 -4.846968659193e-06 2.322191039617e-04 1.955118833580e-02
2.511886431510e+00 3.317118827362e-04 2.060656755988e-02 9.996682828121e-01 -7.327421152526e-06 5.780758123278e-05 -3.397783594862e-02 5.779904902692e-05 1.799598680644e+02
